Entering Configuration Mode Successful!
Setting Baudrate Successful!
MCP2515 Initialized Successfully!
MCP2515 Library Receive Example...
Standard ID: 0x682       DLC: 1  Data: 0x00
Standard ID: 0x35D       DLC: 8  Data: 0x00 0x03 0x00 0x00 0x00 0x00 0x00 0x00
Standard ID: 0x5C5       DLC: 8  Data: 0x84 0x00 0xC6 0xA6 0x00 0x0C 0x00 0x00
Standard ID: 0x2DE       DLC: 8  Data: 0x00 0x00 0x01 0x00 0x00 0x00 0x03 0x02
Standard ID: 0x2D1       DLC: 7  Data: 0x00 0x00 0x00 0x02 0x23 0x84 0x03
Standard ID: 0x625       DLC: 6  Data: 0x02 0x00 0xFF 0x0E 0x00 0x00
Standard ID: 0x216       DLC: 1  Data: 0x40
Standard ID: 0x2DE       DLC: 8  Data: 0x00 0x00 0x00 0x00 0x00 0x00 0x03 0x02
Standard ID: 0x2D1       DLC: 7  Data: 0x00 0x00 0x00 0x00 0x23 0x84 0x03
Standard ID: 0x2DE       DLC: 8  Data: 0x00 0x00 0x01 0x00 0x00 0x00 0x03 0x02
Standard ID: 0x216       DLC: 1  Data: 0x40
Standard ID: 0x2D1       DLC: 7  Data: 0x00 0x00 0x00 0x01 0x23 0x84 0x03
Standard ID: 0x280       DLC: 8  Data: 0x03 0x08 0x00 0x00 0x00 0x00 0xEA 0x40
Standard ID: 0x216       DLC: 1  Data: 0x40
Standard ID: 0x2D1       DLC: 7  Data: 0x00 0x00 0x00 0x03 0x23 0x84 0x03
Standard ID: 0x280       DLC: 8  Data: 0x03 0x08 0x00 0x00 0x00 0x00 0xEA 0x40
Standard ID: 0x2DE       DLC: 8  Data: 0x00 0x00 0x01 0x00 0x00 0x00 0x03 0x02
Standard ID: 0x216       DLC: 1  Data: 0x40
Standard ID: 0x2D1       DLC: 7  Data: 0x00 0x00 0x00 0x00 0x23 0x84 0x03
Standard ID: 0x280       DLC: 8  Data: 0x03 0x08 0x00 0x00 0x00 0x00 0xEA 0x40
Standard ID: 0x625       DLC: 6  Data: 0x02 0x00 0xFF 0x0E 0x00 0x00
Standard ID: 0x2D1       DLC: 7  Data: 0x00 0x00 0x00 0x02 0x23 0x84 0x03
Standard ID: 0x358       DLC: 8  Data: 0x01 0x00 0x00 0x00 0x00 0x00 0x00 0x00
Standard ID: 0x216       DLC: 1  Data: 0x40
Standard ID: 0x2D1       DLC: 7  Data: 0x00 0x00 0x00 0x03 0x23 0x81 0x03
Standard ID: 0x280       DLC: 8  Data: 0x03 0x08 0x00 0x00 0x00 0x00 0xEB 0x40
Standard ID: 0x2D1       DLC: 7  Data: 0x00 0x00 0x00 0x00 0x23 0x81 0x03
Standard ID: 0x216       DLC: 1  Data: 0x40
Standard ID: 0x2D1       DLC: 7  Data: 0x00 0x00 0x00 0x01 0x23 0x81 0x03
Standard ID: 0x280       DLC: 8  Data: 0x03 0x08 0x00 0x00 0x00 0x00 0xEB 0x40
Standard ID: 0x216       DLC: 1  Data: 0x40
Standard ID: 0x2D1       DLC: 7  Data: 0x00 0x00 0x00 0x02 0x23 0x81 0x03
Standard ID: 0x280       DLC: 8  Data: 0x03 0x08 0x00 0x00 0x00 0x00 0xEB 0x40
Standard ID: 0x2D1       DLC: 7  Data: 0x00 0x00 0x00 0x03 0x23 0x81 0x03
Standard ID: 0x216       DLC: 1  Data: 0x40
Standard ID: 0x2D1       DLC: 7  Data: 0x00 0x00 0x00 0x00 0x23 0x81 0x03
Standard ID: 0x280       DLC: 8  Data: 0x03 0x08 0x00 0x00 0x00 0x00 0xEB 0x40
Standard ID: 0x625       DLC: 6  Data: 0x02 0x00 0xFF 0x0E 0x00 0x00
Standard ID: 0x2D1       DLC: 7  Data: 0x00 0x00 0x00 0x01 0x23 0x81 0x03
Standard ID: 0x358       DLC: 8  Data: 0x01 0x00 0x00 0x00 0x00 0x00 0x00 0x00
Standard ID: 0x216       DLC: 1  Data: 0x40
Standard ID: 0x2D1       DLC: 7  Data: 0x00 0x00 0x00 0x03 0x23 0x81 0x03
Standard ID: 0x280       DLC: 8  Data: 0x03 0x08 0x00 0x00 0x00 0x00 0xEB 0x40
Standard ID: 0x2DE       DLC: 8  Data: 0x00 0x00 0x01 0x00 0x00 0x00 0x03 0x02
Standard ID: 0x216       DLC: 1  Data: 0x40
Standard ID: 0x2D1       DLC: 7  Data: 0x00 0x00 0x00 0x00 0x23 0x81 0x03
Standard ID: 0x280       DLC: 8  Data: 0x03 0x08 0x00 0x00 0x00 0x00 0xEB 0x40
Standard ID: 0x216       DLC: 1  Data: 0x40
Standard ID: 0x2D1       DLC: 7  Data: 0x00 0x00 0x00 0x02 0x23 0x81 0x03
Standard ID: 0x280       DLC: 8  Data: 0x03 0x08 0x00 0x00 0x00 0x00 0xEB 0x40
Standard ID: 0x2DE       DLC: 8  Data: 0x00 0x00 0x01 0x00 0x00 0x00 0x03 0x02
Standard ID: 0x216       DLC: 1  Data: 0x40
Standard ID: 0x2D1       DLC: 7  Data: 0x00 0x00 0x00 0x03 0x23 0x81 0x03
Standard ID: 0x280       DLC: 8  Data: 0x03 0x08 0x00 0x00 0x00 0x00 0xEB 0x40
Standard ID: 0x625       DLC: 6  Data: 0x02 0x00 0xFF 0x0E 0x00 0x00
Standard ID: 0x60D       DLC: 8  Data: 0x10 0x00 0x00 0x00 0x00 0x00 0x00 0x00
Standard ID: 0x358       DLC: 8  Data: 0x01 0x00 0x00 0x00 0x00 0x00 0x00 0x00
Standard ID: 0x216       DLC: 1  Data: 0x40
Standard ID: 0x2D1       DLC: 7  Data: 0x00 0x00 0x00 0x02 0x23 0x7C 0x03
Standard ID: 0x280       DLC: 8  Data: 0x03 0x08 0x00 0x00 0x00 0x00 0xE8 0x40
Standard ID: 0x2D1       DLC: 7  Data: 0x00 0x00 0x00 0x03 0x23 0x7C 0x03
Standard ID: 0x216       DLC: 1  Data: 0x40
Standard ID: 0x2D1       DLC: 7  Data: 0x00 0x00 0x00 0x00 0x23 0x7C 0x03
Standard ID: 0x280       DLC: 8  Data: 0x03 0x08 0x00 0x00 0x00 0x00 0xE8 0x40
Standard ID: 0x216       DLC: 1  Data: 0x40
Standard ID: 0x2D1       DLC: 7  Data: 0x00 0x00 0x00 0x01 0x23 0x7C 0x03
Standard ID: 0x280       DLC: 8  Data: 0x03 0x08 0x00 0x00 0x00 0x00 0xE8 0x40
Standard ID: 0x2D1       DLC: 7  Data: 0x00 0x00 0x00 0x02 0x23 0x7C 0x03
Standard ID: 0x216       DLC: 1  Data: 0x40
Standard ID: 0x2D1       DLC: 7  Data: 0x00 0x00 0x00 0x03 0x23 0x7C 0x03
Standard ID: 0x280       DLC: 8  Data: 0x03 0x08 0x00 0x00 0x00 0x00 0xE8 0x40
Standard ID: 0x625       DLC: 6  Data: 0x02 0x00 0xFF 0x0E 0x00 0x00
Standard ID: 0x358       DLC: 8  Data: 0x01 0x00 0x00 0x00 0x00 0x00 0x00 0x00
Standard ID: 0x280       DLC: 8  Data: 0x03 0x08 0x00 0x00 0x00 0x00 0xE8 0x40
Standard ID: 0x216       DLC: 1  Data: 0x40
Standard ID: 0x358       DLC: 8  Data: 0x00 0x00 0x00 0x00 0x00 0x00 0x00 0x00
Standard ID: 0x280       DLC: 8  Data: 0x03 0x08 0x00 0x00 0x00 0x00 0xEB 0x40
Standard ID: 0x215       DLC: 6  Data: 0xFF 0xF0 0xFF 0x00 0xFF 0xFF
Standard ID: 0x216       DLC: 1  Data: 0x40
Standard ID: 0x2D1       DLC: 7  Data: 0x00 0x00 0x00 0x03 0x23 0x83 0x03
Standard ID: 0x280       DLC: 8  Data: 0x03 0x08 0x00 0x00 0x00 0x00 0xEB 0x40
Standard ID: 0x216       DLC: 1  Data: 0x40
Standard ID: 0x2D1       DLC: 7  Data: 0x00 0x00 0x00 0x01 0x23 0x83 0x03
Standard ID: 0x280       DLC: 8  Data: 0x03 0x08 0x00 0x00 0x00 0x00 0xEB 0x40
Standard ID: 0x215       DLC: 6  Data: 0xFF 0xF0 0xFF 0x00 0xFF 0xFF
Standard ID: 0x216       DLC: 1  Data: 0x40
Standard ID: 0x2D1       DLC: 7  Data: 0x00 0x00 0x00 0x02 0x23 0x83 0x03
Standard ID: 0x280       DLC: 8  Data: 0x03 0x08 0x00 0x00 0x00 0x00 0xEB 0x40
Standard ID: 0x625       DLC: 6  Data: 0x02 0x00 0xFF 0x0E 0x00 0x00
Standard ID: 0x60D       DLC: 8  Data: 0x10 0x00 0x00 0x00 0x00 0x00 0x00 0x00
Standard ID: 0x280       DLC: 8  Data: 0x03 0x08 0x00 0x00 0x00 0x00 0xEB 0x40
Standard ID: 0x216       DLC: 1  Data: 0x40
Standard ID: 0x358       DLC: 8  Data: 0x00 0x00 0x00 0x00 0x00 0x00 0x00 0x00
Standard ID: 0x280       DLC: 8  Data: 0x03 0x08 0x00 0x00 0x00 0x00 0xE9 0x40
Standard ID: 0x215       DLC: 6  Data: 0xFF 0xF0 0xFF 0x00 0xFF 0xFF
Standard ID: 0x216       DLC: 1  Data: 0x40
Standard ID: 0x2D1       DLC: 7  Data: 0x00 0x00 0x00 0x03 0x23 0x81 0x03
Standard ID: 0x280       DLC: 8  Data: 0x03 0x08 0x00 0x00 0x00 0x00 0xE9 0x40
Standard ID: 0x216       DLC: 1  Data: 0x40
Standard ID: 0x2D1       DLC: 7  Data: 0x00 0x00 0x00 0x00 0x23 0x81 0x03
Standard ID: 0x280       DLC: 8  Data: 0x03 0x08 0x00 0x00 0x00 0x00 0xE9 0x40
Standard ID: 0x215       DLC: 6  Data: 0xFF 0xF0 0xFF 0x00 0xFF 0xFF
Standard ID: 0x216       DLC: 1  Data: 0x40
Standard ID: 0x2D1       DLC: 7  Data: 0x00 0x00 0x00 0x02 0x23 0x81 0x03
Standard ID: 0x280       DLC: 8  Data: 0x03 0x08 0x00 0x00 0x00 0x00 0xE9 0x40
Standard ID: 0x625       DLC: 6  Data: 0x02 0x00 0xFF 0x0E 0x00 0x00
Standard ID: 0x60D       DLC: 8  Data: 0x10 0x00 0x00 0x00 0x00 0x00 0x00 0x00
Standard ID: 0x280       DLC: 8  Data: 0x03 0x08 0x00 0x00 0x00 0x00 0xE9 0x40
Standard ID: 0x216       DLC: 1  Data: 0x40
Standard ID: 0x2D1       DLC: 7  Data: 0x00 0x00 0x00 0x01 0x23 0x81 0x03
Standard ID: 0x358       DLC: 8  Data: 0x00 0x00 0x00 0x00 0x00 0x00 0x00 0x00
Standard ID: 0x2DE       DLC: 8  Data: 0x00 0x00 0x01 0x00 0x00 0x00 0x03 0x02
Standard ID: 0x216       DLC: 1  Data: 0x40
Standard ID: 0x2D1       DLC: 7  Data: 0x00 0x00 0x00 0x02 0x23 0x81 0x03
Standard ID: 0x280       DLC: 8  Data: 0x03 0x08 0x00 0x00 0x00 0x00 0xEB 0x40
Standard ID: 0x216       DLC: 1  Data: 0x40
Standard ID: 0x2D1       DLC: 7  Data: 0x00 0x00 0x00 0x00 0x23 0x81 0x03
Standard ID: 0x280       DLC: 8  Data: 0x03 0x08 0x00 0x00 0x00 0x00 0xEB 0x40
Standard ID: 0x216       DLC: 1  Data: 0x40
Standard ID: 0x2DE       DLC: 8  Data: 0x00 0x00 0x02 0x00 0x00 0x00 0x03 0x02
Standard ID: 0x2D1       DLC: 7  Data: 0x00 0x00 0x00 0x01 0x23 0x81 0x03
Standard ID: 0x2D1       DLC: 7  Data: 0x00 0x00 0x00 0x02 0x23 0x81 0x03
Standard ID: 0x625       DLC: 6  Data: 0x02 0x00 0xFF 0x0E 0x00 0x00
Standard ID: 0x60D       DLC: 8  Data: 0x10 0x00 0x00 0x00 0x00 0x00 0x00 0x00
Standard ID: 0x280       DLC: 8  Data: 0x03 0x08 0x00 0x00 0x00 0x00 0xEB 0x40
Standard ID: 0x216       DLC: 1  Data: 0x40
Standard ID: 0x358       DLC: 8  Data: 0x00 0x00 0x00 0x00 0x00 0x00 0x00 0x00
Standard ID: 0x280       DLC: 8  Data: 0x03 0x08 0x00 0x00 0x00 0x00 0xEB 0x40
Standard ID: 0x216       DLC: 1  Data: 0x40
Standard ID: 0x2D1       DLC: 7  Data: 0x00 0x00 0x00 0x02 0x23 0x86 0x03
Standard ID: 0x280       DLC: 8  Data: 0x03 0x08 0x00 0x00 0x00 0x00 0xEB 0x40
Standard ID: 0x2DE       DLC: 8  Data: 0x00 0x00 0x01 0x00 0x00 0x00 0x03 0x02
Standard ID: 0x216       DLC: 1  Data: 0x40
Standard ID: 0x2D1       DLC: 7  Data: 0x00 0x00 0x00 0x03 0x23 0x86 0x03
Standard ID: 0x280       DLC: 8  Data: 0x03 0x08 0x00 0x00 0x00 0x00 0xEB 0x40
Standard ID: 0x216       DLC: 1  Data: 0x40
Standard ID: 0x2D1       DLC: 7  Data: 0x00 0x00 0x00 0x01 0x23 0x86 0x03
Standard ID: 0x280       DLC: 8  Data: 0x03 0x08 0x00 0x00 0x00 0x00 0xEB 0x40
Standard ID: 0x5C5       DLC: 8  Data: 0x84 0x00 0xC6 0xA6 0x00 0x0C 0x00 0x00
Standard ID: 0x625       DLC: 6  Data: 0x02 0x00 0xFF 0x0E 0x00 0x00
Standard ID: 0x60D       DLC: 8  Data: 0x10 0x00 0x00 0x00 0x00 0x00 0x00 0x00
Standard ID: 0x2D1       DLC: 7  Data: 0x00 0x00 0x00 0x03 0x23 0x86 0x03
Standard ID: 0x216       DLC: 1  Data: 0x40
Standard ID: 0x358       DLC: 8  Data: 0x00 0x00 0x00 0x00 0x00 0x00 0x00 0x00
Standard ID: 0x280       DLC: 8  Data: 0x03 0x08 0x00 0x00 0x00 0x00 0xEA 0x40
Standard ID: 0x216       DLC: 1  Data: 0x40
Standard ID: 0x2D1       DLC: 7  Data: 0x00 0x00 0x00 0x01 0x23 0x83 0x03
Standard ID: 0x280       DLC: 8  Data: 0x03 0x08 0x00 0x00 0x00 0x00 0xEA 0x40
Standard ID: 0x2D1       DLC: 7  Data: 0x00 0x00 0x00 0x02 0x23 0x83 0x03
Standard ID: 0x216       DLC: 1  Data: 0x40
Standard ID: 0x2D1       DLC: 7  Data: 0x00 0x00 0x00 0x03 0x23 0x83 0x03
Standard ID: 0x280       DLC: 8  Data: 0x03 0x08 0x00 0x00 0x00 0x00 0xEA 0x40
Standard ID: 0x216       DLC: 1  Data: 0x40
Standard ID: 0x2D1       DLC: 7  Data: 0x00 0x00 0x00 0x00 0x23 0x83 0x03
Standard ID: 0x280       DLC: 8  Data: 0x03 0x08 0x00 0x00 0x00 0x00 0xEA 0x40
Standard ID: 0x35D       DLC: 8  Data: 0x00 0x03 0x00 0x00 0x00 0x00 0x00 0x00
Standard ID: 0x625       DLC: 6  Data: 0x02 0x00 0xFF 0x0E 0x00 0x00
Standard ID: 0x60D       DLC: 8  Data: 0x10 0x00 0x00 0x00 0x00 0x00 0x00 0x00
Standard ID: 0x2DE       DLC: 8  Data: 0x00 0x00 0x01 0x00 0x00 0x00 0x03 0x02
Standard ID: 0x216       DLC: 1  Data: 0x40
Standard ID: 0x358       DLC: 8  Data: 0x00 0x00 0x00 0x00 0x00 0x00 0x00 0x00
Standard ID: 0x280       DLC: 8  Data: 0x03 0x08 0x00 0x00 0x00 0x00 0xEA 0x40
Standard ID: 0x216       DLC: 1  Data: 0x40
Standard ID: 0x2D1       DLC: 7  Data: 0x00 0x00 0x00 0x01 0x23 0x83 0x03
Standard ID: 0x280       DLC: 8  Data: 0x03 0x08 0x00 0x00 0x00 0x00 0xEA 0x40
Standard ID: 0x215       DLC: 6  Data: 0xFF 0xF0 0xFF 0x00 0xFF 0xFF
Standard ID: 0x216       DLC: 1  Data: 0x40
Standard ID: 0x2D1       DLC: 7  Data: 0x00 0x00 0x00 0x02 0x23 0x83 0x03
Standard ID: 0x280       DLC: 8  Data: 0x03 0x08 0x00 0x00 0x00 0x00 0xEA 0x40
Standard ID: 0x216       DLC: 1  Data: 0x40
Standard ID: 0x2D1       DLC: 7  Data: 0x00 0x00 0x00 0x00 0x23 0x83 0x03
Standard ID: 0x280       DLC: 8  Data: 0x03 0x08 0x00 0x00 0x00 0x00 0xEA 0x40
Standard ID: 0x35D       DLC: 8  Data: 0x00 0x03 0x00 0x00 0x00 0x00 0x00 0x00
Standard ID: 0x625       DLC: 6  Data: 0x02 0x00 0xFF 0x0E 0x00 0x00
Standard ID: 0x60D       DLC: 8  Data: 0x10 0x00 0x00 0x00 0x00 0x00 0x00 0x00
Standard ID: 0x2D1       DLC: 7  Data: 0x00 0x00 0x00 0x02 0x23 0x83 0x03
Standard ID: 0x216       DLC: 1  Data: 0x40
Standard ID: 0x358       DLC: 8  Data: 0x00 0x00 0x00 0x00 0x00 0x00 0x00 0x00
Standard ID: 0x280       DLC: 8  Data: 0x03 0x08 0x00 0x00 0x00 0x00 0xEB 0x40
Standard ID: 0x216       DLC: 1  Data: 0x40
Standard ID: 0x2D1       DLC: 7  Data: 0x00 0x00 0x00 0x00 0x23 0x85 0x03
Standard ID: 0x280       DLC: 8  Data: 0x03 0x08 0x00 0x00 0x00 0x00 0xEB 0x40
Standard ID: 0x216       DLC: 1  Data: 0x40
Standard ID: 0x2DE       DLC: 8  Data: 0x00 0x00 0x00 0x00 0x00 0x00 0x03 0x02
Standard ID: 0x2D1       DLC: 7  Data: 0x00 0x00 0x00 0x02 0x23 0x85 0x03
Standard ID: 0x2DE       DLC: 8  Data: 0x00 0x00 0x01 0x00 0x00 0x00 0x03 0x02
Standard ID: 0x216       DLC: 1  Data: 0x40
Standard ID: 0x2D1       DLC: 7  Data: 0x00 0x00 0x00 0x03 0x23 0x85 0x03
Standard ID: 0x280       DLC: 8  Data: 0x03 0x08 0x00 0x00 0x00 0x00 0xEB 0x40
Standard ID: 0x625       DLC: 6  Data: 0x02 0x00 0xFF 0x0E 0x00 0x00
Standard ID: 0x2D1       DLC: 7  Data: 0x00 0x00 0x00 0x01 0x23 0x85 0x03
Standard ID: 0x60D       DLC: 8  Data: 0x10 0x00 0x00 0x00 0x00 0x00 0x00 0x00
Standard ID: 0x216       DLC: 1  Data: 0x40
Standard ID: 0x2DE       DLC: 8  Data: 0x00 0x00 0x02 0x00 0x00 0x00 0x03 0x02
Standard ID: 0x358       DLC: 8  Data: 0x00 0x00 0x00 0x00 0x00 0x00 0x00 0x00
Standard ID: 0x2D1       DLC: 7  Data: 0x00 0x00 0x00 0x03 0x23 0x85 0x03
Standard ID: 0x216       DLC: 1  Data: 0x40
Standard ID: 0x2D1       DLC: 7  Data: 0x00 0x00 0x00 0x00 0x23 0x85 0x03
Standard ID: 0x280       DLC: 8  Data: 0x03 0x08 0x00 0x00 0x00 0x00 0xED 0x40
Standard ID: 0x216       DLC: 1  Data: 0x40
Standard ID: 0x2D1       DLC: 7  Data: 0x00 0x00 0x00 0x01 0x23 0x85 0x03
Standard ID: 0x280       DLC: 8  Data: 0x03 0x08 0x00 0x00 0x00 0x00 0xED 0x40
Standard ID: 0x2D1       DLC: 7  Data: 0x00 0x00 0x00 0x02 0x23 0x85 0x03
Standard ID: 0x216       DLC: 1  Data: 0x40
Standard ID: 0x2D1       DLC: 7  Data: 0x00 0x00 0x00 0x03 0x23 0x85 0x03
Standard ID: 0x280       DLC: 8  Data: 0x03 0x08 0x00 0x00 0x00 0x00 0xED 0x40
Standard ID: 0x625       DLC: 6  Data: 0x02 0x00 0xFF 0x0E 0x00 0x00
Standard ID: 0x2D1       DLC: 7  Data: 0x00 0x00 0x00 0x00 0x23 0x85 0x03
Standard ID: 0x60D       DLC: 8  Data: 0x10 0x00 0x00 0x00 0x00 0x00 0x00 0x00
Standard ID: 0x216       DLC: 1  Data: 0x40
Standard ID: 0x2D1       DLC: 7  Data: 0x00 0x00 0x00 0x02 0x23 0x7F 0x03
Standard ID: 0x358       DLC: 8  Data: 0x00 0x00 0x00 0x00 0x00 0x00 0x00 0x00
Standard ID: 0x2DE       DLC: 8  Data: 0x00 0x00 0x01 0x00 0x00 0x00 0x03 0x02
Standard ID: 0x216       DLC: 1  Data: 0x40
Standard ID: 0x2D1       DLC: 7  Data: 0x00 0x00 0x00 0x03 0x23 0x7F 0x03
Standard ID: 0x280       DLC: 8  Data: 0x03 0x08 0x00 0x00 0x00 0x00 0xE8 0x40
Standard ID: 0x216       DLC: 1  Data: 0x40
Standard ID: 0x2D1       DLC: 7  Data: 0x00 0x00 0x00 0x01 0x23 0x7F 0x03
Standard ID: 0x280       DLC: 8  Data: 0x03 0x08 0x00 0x00 0x00 0x00 0xE8 0x40
Standard ID: 0x2DE       DLC: 8  Data: 0x00 0x00 0x01 0x00 0x00 0x00 0x03 0x02
Standard ID: 0x216       DLC: 1  Data: 0x40
Standard ID: 0x2D1       DLC: 7  Data: 0x00 0x00 0x00 0x02 0x23 0x7F 0x03
Standard ID: 0x280       DLC: 8  Data: 0x03 0x08 0x00 0x00 0x00 0x00 0xE8 0x40
Standard ID: 0x625       DLC: 6  Data: 0x02 0x00 0xFF 0x0E 0x00 0x00
Standard ID: 0x2D1       DLC: 7  Data: 0x00 0x00 0x00 0x00 0x23 0x7F 0x03
Standard ID: 0x60D       DLC: 8  Data: 0x10 0x00 0x00 0x00 0x00 0x00 0x00 0x00
Standard ID: 0x216       DLC: 1  Data: 0x40
Standard ID: 0x2D1       DLC: 7  Data: 0x00 0x00 0x00 0x01 0x23 0x7F 0x03
Standard ID: 0x358       DLC: 8  Data: 0x00 0x00 0x00 0x00 0x00 0x00 0x00 0x00
Standard ID: 0x2D1       DLC: 7  Data: 0x00 0x00 0x00 0x02 0x23 0x7F 0x03
Standard ID: 0x216       DLC: 1  Data: 0x40
Standard ID: 0x2D1       DLC: 7  Data: 0x00 0x00 0x00 0x03 0x23 0x7F 0x03
Standard ID: 0x280       DLC: 8  Data: 0x03 0x08 0x00 0x00 0x00 0x00 0xE8 0x40
Standard ID: 0x216       DLC: 1  Data: 0x40
Standard ID: 0x2D1       DLC: 7  Data: 0x00 0x00 0x00 0x00 0x23 0x7F 0x03
Standard ID: 0x280       DLC: 8  Data: 0x03 0x08 0x00 0x00 0x00 0x00 0xE8 0x40
Standard ID: 0x2D1       DLC: 7  Data: 0x00 0x00 0x00 0x01 0x23 0x7F 0x03
Standard ID: 0x216       DLC: 1  Data: 0x40
Standard ID: 0x2D1       DLC: 7  Data: 0x00 0x00 0x00 0x02 0x23 0x7F 0x03
Standard ID: 0x280       DLC: 8  Data: 0x03 0x08 0x00 0x00 0x00 0x00 0xE8 0x40
Standard ID: 0x625       DLC: 6  Data: 0x02 0x00 0xFF 0x0E 0x00 0x00
Standard ID: 0x2D1       DLC: 7  Data: 0x00 0x00 0x00 0x03 0x23 0x7F 0x03
Standard ID: 0x60D       DLC: 8  Data: 0x10 0x00 0x00 0x00 0x00 0x00 0x00 0x00
Standard ID: 0x216       DLC: 1  Data: 0x40
Standard ID: 0x2D1       DLC: 7  Data: 0x00 0x00 0x00 0x01 0x23 0x7C 0x03
Standard ID: 0x358       DLC: 8  Data: 0x00 0x00 0x00 0x00 0x00 0x00 0x00 0x00
Standard ID: 0x2DE       DLC: 8  Data: 0x00 0x00 0x01 0x00 0x00 0x00 0x03 0x02
Standard ID: 0x216       DLC: 1  Data: 0x40
Standard ID: 0x2D1       DLC: 7  Data: 0x00 0x00 0x00 0x02 0x23 0x7C 0x03
Standard ID: 0x280       DLC: 8  Data: 0x03 0x08 0x00 0x00 0x00 0x00 0xE7 0x40
Standard ID: 0x216       DLC: 1  Data: 0x40
Standard ID: 0x2D1       DLC: 7  Data: 0x00 0x00 0x00 0x00 0x23 0x7C 0x03
Standard ID: 0x280       DLC: 8  Data: 0x03 0x08 0x00 0x00 0x00 0x00 0xE7 0x40
Standard ID: 0x2DE       DLC: 8  Data: 0x00 0x00 0x01 0x00 0x00 0x00 0x03 0x02
Standard ID: 0x216       DLC: 1  Data: 0x40
Standard ID: 0x2D1       DLC: 7  Data: 0x00 0x00 0x00 0x01 0x23 0x7C 0x03
Standard ID: 0x280       DLC: 8  Data: 0x03 0x08 0x00 0x00 0x00 0x00 0xE7 0x40
Standard ID: 0x625       DLC: 6  Data: 0x02 0x00 0xFF 0x0E 0x00 0x00
Standard ID: 0x60D       DLC: 8  Data: 0x10 0x00 0x00 0x00 0x00 0x00 0x00 0x00
Standard ID: 0x280       DLC: 8  Data: 0x03 0x08 0x00 0x00 0x00 0x00 0xE7 0x40
Standard ID: 0x216       DLC: 1  Data: 0x40
Standard ID: 0x358       DLC: 8  Data: 0x00 0x00 0x00 0x00 0x00 0x00 0x00 0x00
Standard ID: 0x280       DLC: 8  Data: 0x03 0x08 0x00 0x00 0x00 0x00 0xEC 0x40
Standard ID: 0x215       DLC: 6  Data: 0xFF 0xF0 0xFF 0x00 0xFF 0xFF
Standard ID: 0x216       DLC: 1  Data: 0x40
Standard ID: 0x2D1       DLC: 7  Data: 0x00 0x00 0x00 0x02 0x23 0x8F 0x03
Standard ID: 0x280       DLC: 8  Data: 0x03 0x08 0x00 0x00 0x00 0x00 0xEC 0x40
Standard ID: 0x216       DLC: 1  Data: 0x40
Standard ID: 0x2D1       DLC: 7  Data: 0x00 0x00 0x00 0x03 0x23 0x8F 0x03
Standard ID: 0x280       DLC: 8  Data: 0x03 0x08 0x00 0x00 0x00 0x00 0xEC 0x40
Standard ID: 0x215       DLC: 6  Data: 0xFF 0xF0 0xFF 0x00 0xFF 0xFF
Standard ID: 0x216       DLC: 1  Data: 0x40
Standard ID: 0x2D1       DLC: 7  Data: 0x00 0x00 0x00 0x01 0x23 0x8F 0x03
Standard ID: 0x280       DLC: 8  Data: 0x03 0x08 0x00 0x00 0x00 0x00 0xEC 0x40
Standard ID: 0x625       DLC: 6  Data: 0x02 0x00 0xFF 0x0E 0x00 0x00
Standard ID: 0x60D       DLC: 8  Data: 0x10 0x00 0x00 0x00 0x00 0x00 0x00 0x00
Standard ID: 0x280       DLC: 8  Data: 0x03 0x08 0x00 0x00 0x00 0x00 0xEC 0x40
Standard ID: 0x216       DLC: 1  Data: 0x40
Standard ID: 0x358       DLC: 8  Data: 0x00 0x00 0x00 0x00 0x00 0x00 0x00 0x00
Standard ID: 0x280       DLC: 8  Data: 0x03 0x08 0x00 0x00 0x00 0x00 0xEA 0x40
Standard ID: 0x215       DLC: 6  Data: 0xFF 0xF0 0xFF 0x00 0xFF 0xFF
Standard ID: 0x216       DLC: 1  Data: 0x40
Standard ID: 0x2D1       DLC: 7  Data: 0x00 0x00 0x00 0x01 0x23 0x84 0x03
Standard ID: 0x280       DLC: 8  Data: 0x03 0x08 0x00 0x00 0x00 0x00 0xEA 0x40
Standard ID: 0x216       DLC: 1  Data: 0x40
Standard ID: 0x2D1       DLC: 7  Data: 0x00 0x00 0x00 0x03 0x23 0x84 0x03
Standard ID: 0x280       DLC: 8  Data: 0x03 0x08 0x00 0x00 0x00 0x00 0xEA 0x40
Standard ID: 0x215       DLC: 6  Data: 0xFF 0xF0 0xFF 0x00 0xFF 0xFF
Standard ID: 0x216       DLC: 1  Data: 0x40
Standard ID: 0x2D1       DLC: 7  Data: 0x00 0x00 0x00 0x00 0x23 0x84 0x03
Standard ID: 0x280       DLC: 8  Data: 0x03 0x08 0x00 0x00 0x00 0x00 0xEA 0x40
Standard ID: 0x625       DLC: 6  Data: 0x02 0x00 0xFF 0x0E 0x00 0x00
Standard ID: 0x60D       DLC: 8  Data: 0x10 0x00 0x00 0x00 0x00 0x00 0x00 0x00
Standard ID: 0x280       DLC: 8  Data: 0x03 0x08 0x00 0x00 0x00 0x00 0xEA 0x40
Standard ID: 0x216       DLC: 1  Data: 0x40
Standard ID: 0x2D1       DLC: 7  Data: 0x00 0x00 0x00 0x03 0x23 0x84 0x03
Standard ID: 0x358       DLC: 8  Data: 0x00 0x00 0x00 0x00 0x00 0x00 0x00 0x00
Standard ID: 0x2D1       DLC: 7  Data: 0x00 0x00 0x00 0x00 0x23 0x84 0x03
Standard ID: 0x216       DLC: 1  Data: 0x40
Standard ID: 0x2D1       DLC: 7  Data: 0x00 0x00 0x00 0x01 0x23 0x84 0x03
Standard ID: 0x280       DLC: 8  Data: 0x03 0x08 0x00 0x00 0x00 0x00 0xE9 0x40
Standard ID: 0x216       DLC: 1  Data: 0x40
Standard ID: 0x2D1       DLC: 7  Data: 0x00 0x00 0x00 0x02 0x23 0x84 0x03
Standard ID: 0x280       DLC: 8  Data: 0x03 0x08 0x00 0x00 0x00 0x00 0xE9 0x40
Standard ID: 0x2D1       DLC: 7  Data: 0x00 0x00 0x00 0x03 0x23 0x84 0x03
Standard ID: 0x216       DLC: 1  Data: 0x40
Standard ID: 0x2D1       DLC: 7  Data: 0x00 0x00 0x00 0x00 0x23 0x84 0x03
Standard ID: 0x280       DLC: 8  Data: 0x03 0x08 0x00 0x00 0x00 0x00 0xE9 0x40
Standard ID: 0x625       DLC: 6  Data: 0x02 0x00 0xFF 0x0E 0x00 0x00
Standard ID: 0x60D       DLC: 8  Data: 0x10 0x00 0x00 0x00 0x00 0x00 0x00 0x00
Standard ID: 0x280       DLC: 8  Data: 0x03 0x08 0x00 0x00 0x00 0x00 0xE9 0x40
Standard ID: 0x216       DLC: 1  Data: 0x40
Standard ID: 0x358       DLC: 8  Data: 0x00 0x00 0x00 0x00 0x00 0x00 0x00 0x00
Standard ID: 0x280       DLC: 8  Data: 0x03 0x08 0x00 0x00 0x00 0x00 0xE9 0x40
Standard ID: 0x216       DLC: 1  Data: 0x40
Standard ID: 0x2DE       DLC: 8  Data: 0x00 0x00 0x02 0x00 0x00 0x00 0x03 0x02
Standard ID: 0x2D1       DLC: 7  Data: 0x00 0x00 0x00 0x00 0x23 0x81 0x03
Standard ID: 0x2D1       DLC: 7  Data: 0x00 0x00 0x00 0x01 0x23 0x81 0x03
Standard ID: 0x216       DLC: 1  Data: 0x40
Standard ID: 0x2D1       DLC: 7  Data: 0x00 0x00 0x00 0x02 0x23 0x81 0x03
Standard ID: 0x280       DLC: 8  Data: 0x03 0x08 0x00 0x00 0x00 0x00 0xE9 0x40
Standard ID: 0x216       DLC: 1  Data: 0x40
Standard ID: 0x2DE       DLC: 8  Data: 0x00 0x00 0x02 0x00 0x00 0x00 0x03 0x02
Standard ID: 0x2D1       DLC: 7  Data: 0x00 0x00 0x00 0x03 0x23 0x81 0x03
Standard ID: 0x5C5       DLC: 8  Data: 0x84 0x00 0xC6 0xA6 0x00 0x0C 0x00 0x00
Standard ID: 0x625       DLC: 6  Data: 0x02 0x00 0xFF 0x0E 0x00 0x00
Standard ID: 0x60D       DLC: 8  Data: 0x10 0x00 0x00 0x00 0x00 0x00 0x00 0x00
Standard ID: 0x280       DLC: 8  Data: 0x03 0x08 0x00 0x00 0x00 0x00 0xE9 0x40
Standard ID: 0x216       DLC: 1  Data: 0x40
Standard ID: 0x358       DLC: 8  Data: 0x00 0x00 0x00 0x00 0x00 0x00 0x00 0x00
Standard ID: 0x280       DLC: 8  Data: 0x03 0x08 0x00 0x00 0x00 0x00 0xE7 0x40
Standard ID: 0x216       DLC: 1  Data: 0x40
Standard ID: 0x2D1       DLC: 7  Data: 0x00 0x00 0x00 0x00 0x23 0x7A 0x03
Standard ID: 0x280       DLC: 8  Data: 0x03 0x08 0x00 0x00 0x00 0x00 0xE7 0x40
Standard ID: 0x2DE       DLC: 8  Data: 0x00 0x00 0x01 0x00 0x00 0x00 0x03 0x02
Standard ID: 0x216       DLC: 1  Data: 0x40
Standard ID: 0x2D1       DLC: 7  Data: 0x00 0x00 0x00 0x01 0x23 0x7A 0x03
Standard ID: 0x280       DLC: 8  Data: 0x03 0x08 0x00 0x00 0x00 0x00 0xE7 0x40
Standard ID: 0x216       DLC: 1  Data: 0x40
Standard ID: 0x2D1       DLC: 7  Data: 0x00 0x00 0x00 0x03 0x23 0x7A 0x03
Standard ID: 0x280       DLC: 8  Data: 0x03 0x08 0x00 0x00 0x00 0x00 0xE7 0x40
Standard ID: 0x35D       DLC: 8  Data: 0x00 0x03 0x00 0x00 0x00 0x00 0x00 0x00
Standard ID: 0x625       DLC: 6  Data: 0x02 0x00 0xFF 0x0E 0x00 0x00
Standard ID: 0x60D       DLC: 8  Data: 0x10 0x00 0x00 0x00 0x00 0x00 0x00 0x00
Standard ID: 0x2D1       DLC: 7  Data: 0x00 0x00 0x00 0x01 0x23 0x7A 0x03
Standard ID: 0x216       DLC: 1  Data: 0x40
Standard ID: 0x358       DLC: 8  Data: 0x00 0x00 0x00 0x00 0x00 0x00 0x00 0x00
Standard ID: 0x280       DLC: 8  Data: 0x03 0x08 0x00 0x00 0x00 0x00 0xE6 0x40
Standard ID: 0x216       DLC: 1  Data: 0x40
Standard ID: 0x2D1       DLC: 7  Data: 0x00 0x00 0x00 0x03 0x23 0x7D 0x03
Standard ID: 0x280       DLC: 8  Data: 0x03 0x08 0x00 0x00 0x00 0x00 0xE6 0x40
Standard ID: 0x2D1       DLC: 7  Data: 0x00 0x00 0x00 0x00 0x23 0x7D 0x03
Standard ID: 0x216       DLC: 1  Data: 0x40
Standard ID: 0x2D1       DLC: 7  Data: 0x00 0x00 0x00 0x01 0x23 0x7D 0x03
Standard ID: 0x280       DLC: 8  Data: 0x03 0x08 0x00 0x00 0x00 0x00 0xE6 0x40
Standard ID: 0x216       DLC: 1  Data: 0x40
Standard ID: 0x2D1       DLC: 7  Data: 0x00 0x00 0x00 0x02 0x23 0x7D 0x03
Standard ID: 0x280       DLC: 8  Data: 0x03 0x08 0x00 0x00 0x00 0x00 0xE6 0x40
Standard ID: 0x35D       DLC: 8  Data: 0x00 0x03 0x00 0x00 0x00 0x00 0x00 0x00
Standard ID: 0x625       DLC: 6  Data: 0x02 0x00 0xFF 0x0E 0x00 0x00
Standard ID: 0x60D       DLC: 8  Data: 0x10 0x00 0x00 0x00 0x00 0x00 0x00 0x00
Standard ID: 0x2DE       DLC: 8  Data: 0x00 0x00 0x01 0x00 0x00 0x00 0x03 0x02
Standard ID: 0x216       DLC: 1  Data: 0x40
Standard ID: 0x358       DLC: 8  Data: 0x00 0x00 0x00 0x00 0x00 0x00 0x00 0x00
Standard ID: 0x280       DLC: 8  Data: 0x03 0x08 0x00 0x00 0x00 0x00 0xE9 0x40
Standard ID: 0x216       DLC: 1  Data: 0x40
Standard ID: 0x2D1       DLC: 7  Data: 0x00 0x00 0x00 0x03 0x23 0x84 0x03
Standard ID: 0x280       DLC: 8  Data: 0x03 0x08 0x00 0x00 0x00 0x00 0xE9 0x40
Standard ID: 0x216       DLC: 1  Data: 0x40
Standard ID: 0x2D1       DLC: 7  Data: 0x00 0x00 0x00 0x00 0x23 0x84 0x03
Standard ID: 0x280       DLC: 8  Data: 0x03 0x08 0x00 0x00 0x00 0x00 0xE9 0x40
Standard ID: 0x2D1       DLC: 7  Data: 0x00 0x00 0x00 0x01 0x23 0x84 0x03
Standard ID: 0x216       DLC: 1  Data: 0x40
Standard ID: 0x2D1       DLC: 7  Data: 0x00 0x00 0x00 0x02 0x23 0x84 0x03
Standard ID: 0x280       DLC: 8  Data: 0x03 0x08 0x00 0x00 0x00 0x00 0xE9 0x40
Standard ID: 0x625       DLC: 6  Data: 0x02 0x00 0xFF 0x0E 0x00 0x00
Standard ID: 0x2D1       DLC: 7  Data: 0x00 0x00 0x00 0x03 0x23 0x84 0x03
Standard ID: 0x60D       DLC: 8  Data: 0x10 0x00 0x00 0x00 0x00 0x00 0x00 0x00
Standard ID: 0x216       DLC: 1  Data: 0x40
Standard ID: 0x2DE       DLC: 8  Data: 0x00 0x00 0x00 0x00 0x00 0x00 0x03 0x02
Standard ID: 0x358       DLC: 8  Data: 0x00 0x00 0x00 0x00 0x00 0x00 0x00 0x00
Standard ID: 0x2DE       DLC: 8  Data: 0x00 0x00 0x01 0x00 0x00 0x00 0x03 0x02
Standard ID: 0x216       DLC: 1  Data: 0x40
Standard ID: 0x2D1       DLC: 7  Data: 0x00 0x00 0x00 0x02 0x23 0x82 0x03
Standard ID: 0x280       DLC: 8  Data: 0x03 0x08 0x00 0x00 0x00 0x00 0xE9 0x40
Standard ID: 0x216       DLC: 1  Data: 0x40
Standard ID: 0x2D1       DLC: 7  Data: 0x00 0x00 0x00 0x00 0x23 0x82 0x03
Standard ID: 0x280       DLC: 8  Data: 0x03 0x08 0x00 0x00 0x00 0x00 0xE9 0x40
Standard ID: 0x2DE       DLC: 8  Data: 0x00 0x00 0x01 0x00 0x00 0x00 0x03 0x02
Standard ID: 0x216       DLC: 1  Data: 0x40
Standard ID: 0x2D1       DLC: 7  Data: 0x00 0x00 0x00 0x01 0x23 0x82 0x03
Standard ID: 0x280       DLC: 8  Data: 0x03 0x08 0x00 0x00 0x00 0x00 0xE9 0x40
Standard ID: 0x625       DLC: 6  Data: 0x02 0x00 0xFF 0x0E 0x00 0x00
Standard ID: 0x2D1       DLC: 7  Data: 0x00 0x00 0x00 0x03 0x23 0x82 0x03
Standard ID: 0x60D       DLC: 8  Data: 0x10 0x00 0x00 0x00 0x00 0x00 0x00 0x00
Standard ID: 0x216       DLC: 1  Data: 0x40
Standard ID: 0x2D1       DLC: 7  Data: 0x00 0x00 0x00 0x00 0x23 0x85 0x03
Standard ID: 0x358       DLC: 8  Data: 0x00 0x00 0x00 0x00 0x00 0x00 0x00 0x00
Standard ID: 0x2D1       DLC: 7  Data: 0x00 0x00 0x00 0x01 0x23 0x85 0x03
Standard ID: 0x216       DLC: 1  Data: 0x40
Standard ID: 0x2D1       DLC: 7  Data: 0x00 0x00 0x00 0x02 0x23 0x85 0x03
Standard ID: 0x280       DLC: 8  Data: 0x03 0x08 0x00 0x00 0x00 0x00 0xEC 0x40
Standard ID: 0x216       DLC: 1  Data: 0x40
Standard ID: 0x2D1       DLC: 7  Data: 0x00 0x00 0x00 0x03 0x23 0x85 0x03
Standard ID: 0x280       DLC: 8  Data: 0x03 0x08 0x00 0x00 0x00 0x00 0xEC 0x40
Standard ID: 0x2D1       DLC: 7  Data: 0x00 0x00 0x00 0x00 0x23 0x85 0x03
Standard ID: 0x216       DLC: 1  Data: 0x40
Standard ID: 0x2D1       DLC: 7  Data: 0x00 0x00 0x00 0x01 0x23 0x85 0x03
Standard ID: 0x280       DLC: 8  Data: 0x03 0x08 0x00 0x00 0x00 0x00 0xEC 0x40
Standard ID: 0x625       DLC: 6  Data: 0x02 0x00 0xFF 0x0E 0x00 0x00
Standard ID: 0x2D1       DLC: 7  Data: 0x00 0x00 0x00 0x02 0x23 0x85 0x03
Standard ID: 0x60D       DLC: 8  Data: 0x10 0x00 0x00 0x00 0x00 0x00 0x00 0x00
Standard ID: 0x216       DLC: 1  Data: 0x40
Standard ID: 0x2D1       DLC: 7  Data: 0x00 0x00 0x00 0x00 0x23 0x82 0x03
Standard ID: 0x358       DLC: 8  Data: 0x00 0x00 0x00 0x00 0x00 0x00 0x00 0x00
Standard ID: 0x2DE       DLC: 8  Data: 0x00 0x00 0x01 0x00 0x00 0x00 0x03 0x02
Standard ID: 0x216       DLC: 1  Data: 0x40
Standard ID: 0x2D1       DLC: 7  Data: 0x00 0x00 0x00 0x01 0x23 0x82 0x03
Standard ID: 0x280       DLC: 8  Data: 0x03 0x08 0x00 0x00 0x00 0x00 0xE9 0x40
Standard ID: 0x216       DLC: 1  Data: 0x40
Standard ID: 0x2D1       DLC: 7  Data: 0x00 0x00 0x00 0x03 0x23 0x82 0x03
Standard ID: 0x280       DLC: 8  Data: 0x03 0x08 0x00 0x00 0x00 0x00 0xE9 0x40
Standard ID: 0x2DE       DLC: 8  Data: 0x00 0x00 0x01 0x00 0x00 0x00 0x03 0x02
Standard ID: 0x216       DLC: 1  Data: 0x40
Standard ID: 0x2D1       DLC: 7  Data: 0x00 0x00 0x00 0x00 0x23 0x82 0x03
Standard ID: 0x280       DLC: 8  Data: 0x03 0x08 0x00 0x00 0x00 0x00 0xE9 0x40
Standard ID: 0x625       DLC: 6  Data: 0x02 0x00 0xFF 0x0E 0x00 0x00
Standard ID: 0x60D       DLC: 8  Data: 0x10 0x00 0x00 0x00 0x00 0x00 0x00 0x00
Standard ID: 0x280       DLC: 8  Data: 0x03 0x08 0x00 0x00 0x00 0x00 0xE9 0x40
Standard ID: 0x216       DLC: 1  Data: 0x40
Standard ID: 0x358       DLC: 8  Data: 0x00 0x00 0x00 0x00 0x00 0x00 0x00 0x00
Standard ID: 0x280       DLC: 8  Data: 0x03 0x08 0x00 0x00 0x00 0x00 0xE9 0x40
Standard ID: 0x215       DLC: 6  Data: 0xFF 0xF0 0xFF 0x00 0xFF 0xFF
Standard ID: 0x216       DLC: 1  Data: 0x40
Standard ID: 0x2D1       DLC: 7  Data: 0x00 0x00 0x00 0x01 0x23 0x86 0x03
Standard ID: 0x280       DLC: 8  Data: 0x03 0x08 0x00 0x00 0x00 0x00 0xE9 0x40
Standard ID: 0x216       DLC: 1  Data: 0x40
Standard ID: 0x2D1       DLC: 7  Data: 0x00 0x00 0x00 0x02 0x23 0x86 0x03
Standard ID: 0x280       DLC: 8  Data: 0x03 0x08 0x00 0x00 0x00 0x00 0xE9 0x40
Standard ID: 0x215       DLC: 6  Data: 0xFF 0xF0 0xFF 0x00 0xFF 0xFF
Standard ID: 0x216       DLC: 1  Data: 0x40
Standard ID: 0x2D1       DLC: 7  Data: 0x00 0x00 0x00 0x00 0x23 0x86 0x03
Standard ID: 0x280       DLC: 8  Data: 0x03 0x08 0x00 0x00 0x00 0x00 0xE9 0x40
Standard ID: 0x625       DLC: 6  Data: 0x02 0x00 0xFF 0x0E 0x00 0x00
Standard ID: 0x60D       DLC: 8  Data: 0x10 0x00 0x00 0x00 0x00 0x00 0x00 0x00
Standard ID: 0x280       DLC: 8  Data: 0x03 0x08 0x00 0x00 0x00 0x00 0xE9 0x40
Standard ID: 0x216       DLC: 1  Data: 0x40
Standard ID: 0x358       DLC: 8  Data: 0x00 0x00 0x00 0x00 0x00 0x00 0x00 0x00
Standard ID: 0x280       DLC: 8  Data: 0x03 0x08 0x00 0x00 0x00 0x00 0xE8 0x40
Standard ID: 0x215       DLC: 6  Data: 0xFF 0xF0 0xFF 0x00 0xFF 0xFF
Standard ID: 0x216       DLC: 1  Data: 0x40
Standard ID: 0x2D1       DLC: 7  Data: 0x00 0x00 0x00 0x00 0x23 0x84 0x03
Standard ID: 0x280       DLC: 8  Data: 0x03 0x08 0x00 0x00 0x00 0x00 0xE8 0x40
Standard ID: 0x216       DLC: 1  Data: 0x40
Standard ID: 0x2D1       DLC: 7  Data: 0x00 0x00 0x00 0x02 0x23 0x84 0x03
Standard ID: 0x280       DLC: 8  Data: 0x03 0x08 0x00 0x00 0x00 0x00 0xE8 0x40
Standard ID: 0x215       DLC: 6  Data: 0xFF 0xF0 0xFF 0x00 0xFF 0xFF
Standard ID: 0x216       DLC: 1  Data: 0x40
Standard ID: 0x2D1       DLC: 7  Data: 0x00 0x00 0x00 0x03 0x23 0x84 0x03
Standard ID: 0x280       DLC: 8  Data: 0x03 0x08 0x00 0x00 0x00 0x00 0xE8 0x40
Standard ID: 0x625       DLC: 6  Data: 0x02 0x00 0xFF 0x0E 0x00 0x00
Standard ID: 0x60D       DLC: 8  Data: 0x10 0x00 0x00 0x00 0x00 0x00 0x00 0x00
Standard ID: 0x280       DLC: 8  Data: 0x03 0x08 0x00 0x00 0x00 0x00 0xE8 0x40
Standard ID: 0x216       DLC: 1  Data: 0x40
Standard ID: 0x2D1       DLC: 7  Data: 0x00 0x00 0x00 0x02 0x23 0x7D 0x03
Standard ID: 0x358       DLC: 8  Data: 0x00 0x00 0x00 0x00 0x00 0x00 0x00 0x00
Standard ID: 0x2D1       DLC: 7  Data: 0x00 0x00 0x00 0x03 0x23 0x7D 0x03
Standard ID: 0x216       DLC: 1  Data: 0x40
Standard ID: 0x2D1       DLC: 7  Data: 0x00 0x00 0x00 0x00 0x23 0x7D 0x03
Standard ID: 0x280       DLC: 8  Data: 0x03 0x08 0x00 0x00 0x00 0x00 0xE8 0x40
Standard ID: 0x216       DLC: 1  Data: 0x40
Standard ID: 0x2D1       DLC: 7  Data: 0x00 0x00 0x00 0x01 0x23 0x7D 0x03
Standard ID: 0x280       DLC: 8  Data: 0x03 0x08 0x00 0x00 0x00 0x00 0xE8 0x40
Standard ID: 0x215       DLC: 6  Data: 0xFF 0xF0 0xFF 0x00 0xFF 0xFF
Standard ID: 0x216       DLC: 1  Data: 0x40
Standard ID: 0x2D1       DLC: 7  Data: 0x00 0x00 0x00 0x03 0x23 0x7D 0x03
Standard ID: 0x280       DLC: 8  Data: 0x03 0x08 0x00 0x00 0x00 0x00 0xE8 0x40
Standard ID: 0x625       DLC: 6  Data: 0x02 0x00 0xFF 0x0E 0x00 0x00
Standard ID: 0x60D       DLC: 8  Data: 0x10 0x00 0x00 0x00 0x00 0x00 0x00 0x00
Standard ID: 0x280       DLC: 8  Data: 0x03 0x08 0x00 0x00 0x00 0x00 0xE8 0x40
Standard ID: 0x216       DLC: 1  Data: 0x40
Standard ID: 0x2D1       DLC: 7  Data: 0x00 0x00 0x00 0x02 0x23 0x7C 0x03
Standard ID: 0x358       DLC: 8  Data: 0x00 0x00 0x00 0x00 0x00 0x00 0x00 0x00
Standard ID: 0x2DE       DLC: 8  Data: 0x00 0x00 0x01 0x00 0x00 0x00 0x03 0x02
Standard ID: 0x216       DLC: 1  Data: 0x40
Standard ID: 0x2D1       DLC: 7  Data: 0x00 0x00 0x00 0x03 0x23 0x7C 0x03
Standard ID: 0x280       DLC: 8  Data: 0x03 0x08 0x00 0x00 0x00 0x00 0xE7 0x40
Standard ID: 0x216       DLC: 1  Data: 0x40
Standard ID: 0x2D1       DLC: 7  Data: 0x00 0x00 0x00 0x01 0x23 0x7C 0x03
Standard ID: 0x280       DLC: 8  Data: 0x03 0x08 0x00 0x00 0x00 0x00 0xE7 0x40
Standard ID: 0x216       DLC: 1  Data: 0x40
Standard ID: 0x2DE       DLC: 8  Data: 0x00 0x00 0x02 0x00 0x00 0x00 0x03 0x02
Standard ID: 0x2D1       DLC: 7  Data: 0x00 0x00 0x00 0x02 0x23 0x7C 0x03
Standard ID: 0x2D1       DLC: 7  Data: 0x00 0x00 0x00 0x03 0x23 0x7C 0x03
Standard ID: 0x625       DLC: 6  Data: 0x02 0x00 0xFF 0x0E 0x00 0x00
Standard ID: 0x60D       DLC: 8  Data: 0x10 0x00 0x00 0x00 0x00 0x00 0x00 0x00
Standard ID: 0x280       DLC: 8  Data: 0x03 0x08 0x00 0x00 0x00 0x00 0xE7 0x40
Standard ID: 0x216       DLC: 1  Data: 0x40
Standard ID: 0x358       DLC: 8  Data: 0x00 0x00 0x00 0x00 0x00 0x00 0x00 0x00
Standard ID: 0x280       DLC: 8  Data: 0x03 0x08 0x00 0x00 0x00 0x00 0xE9 0x40
Standard ID: 0x216       DLC: 1  Data: 0x40
Standard ID: 0x2D1       DLC: 7  Data: 0x00 0x00 0x00 0x03 0x23 0x86 0x03
Standard ID: 0x280       DLC: 8  Data: 0x03 0x08 0x00 0x00 0x00 0x00 0xE9 0x40
Standard ID: 0x2DE       DLC: 8  Data: 0x00 0x00 0x01 0x00 0x00 0x00 0x03 0x02
Standard ID: 0x216       DLC: 1  Data: 0x40
Standard ID: 0x2D1       DLC: 7  Data: 0x00 0x00 0x00 0x00 0x23 0x86 0x03
Standard ID: 0x280       DLC: 8  Data: 0x03 0x08 0x00 0x00 0x00 0x00 0xE9 0x40
Standard ID: 0x216       DLC: 1  Data: 0x40
Standard ID: 0x2D1       DLC: 7  Data: 0x00 0x00 0x00 0x02 0x23 0x86 0x03
Standard ID: 0x280       DLC: 8  Data: 0x03 0x08 0x00 0x00 0x00 0x00 0xE9 0x40
Standard ID: 0x5C5       DLC: 8  Data: 0x84 0x00 0xC6 0xA6 0x00 0x0C 0x00 0x00
Standard ID: 0x625       DLC: 6  Data: 0x02 0x00 0xFF 0x0E 0x00 0x00
Standard ID: 0x60D       DLC: 8  Data: 0x10 0x00 0x00 0x00 0x00 0x00 0x00 0x00
Standard ID: 0x2D1       DLC: 7  Data: 0x00 0x00 0x00 0x00 0x23 0x86 0x03
Standard ID: 0x216       DLC: 1  Data: 0x40
Standard ID: 0x358       DLC: 8  Data: 0x00 0x00 0x00 0x00 0x00 0x00 0x00 0x00
Standard ID: 0x280       DLC: 8  Data: 0x03 0x08 0x00 0x00 0x00 0x00 0xE9 0x40
Standard ID: 0x216       DLC: 1  Data: 0x40
Standard ID: 0x2D1       DLC: 7  Data: 0x00 0x00 0x00 0x02 0x23 0x87 0x03
Standard ID: 0x280       DLC: 8  Data: 0x03 0x08 0x00 0x00 0x00 0x00 0xE9 0x40
Standard ID: 0x2D1       DLC: 7  Data: 0x00 0x00 0x00 0x03 0x23 0x87 0x03
Standard ID: 0x216       DLC: 1  Data: 0x40
Standard ID: 0x2D1       DLC: 7  Data: 0x00 0x00 0x00 0x00 0x23 0x87 0x03
Standard ID: 0x280       DLC: 8  Data: 0x03 0x08 0x00 0x00 0x00 0x00 0xE9 0x40
Standard ID: 0x216       DLC: 1  Data: 0x40
Standard ID: 0x2D1       DLC: 7  Data: 0x00 0x00 0x00 0x01 0x23 0x87 0x03
Standard ID: 0x280       DLC: 8  Data: 0x03 0x08 0x00 0x00 0x00 0x00 0xE9 0x40
Standard ID: 0x5C5       DLC: 8  Data: 0x84 0x00 0xC6 0xA6 0x00 0x0C 0x00 0x00
Standard ID: 0x625       DLC: 6  Data: 0x02 0x00 0xFF 0x0E 0x00 0x00
Standard ID: 0x60D       DLC: 8  Data: 0x10 0x00 0x00 0x00 0x00 0x00 0x00 0x00
Standard ID: 0x2DE       DLC: 8  Data: 0x00 0x00 0x01 0x00 0x00 0x00 0x03 0x02
Standard ID: 0x216       DLC: 1  Data: 0x40
Standard ID: 0x358       DLC: 8  Data: 0x00 0x00 0x00 0x00 0x00 0x00 0x00 0x00
Standard ID: 0x280       DLC: 8  Data: 0x03 0x08 0x00 0x00 0x00 0x00 0xEA 0x40
Standard ID: 0x216       DLC: 1  Data: 0x40
Standard ID: 0x2D1       DLC: 7  Data: 0x00 0x00 0x00 0x02 0x23 0x81 0x03
Standard ID: 0x280       DLC: 8  Data: 0x03 0x08 0x00 0x00 0x00 0x00 0xEA 0x40
Standard ID: 0x215       DLC: 6  Data: 0xFF 0xF0 0xFF 0x00 0xFF 0xFF
Standard ID: 0x216       DLC: 1  Data: 0x40
Standard ID: 0x2D1       DLC: 7  Data: 0x00 0x00 0x00 0x03 0x23 0x81 0x03
Standard ID: 0x280       DLC: 8  Data: 0x03 0x08 0x00 0x00 0x00 0x00 0xEA 0x40
Standard ID: 0x216       DLC: 1  Data: 0x40
Standard ID: 0x2D1       DLC: 7  Data: 0x00 0x00 0x00 0x01 0x23 0x81 0x03
Standard ID: 0x280       DLC: 8  Data: 0x03 0x08 0x00 0x00 0x00 0x00 0xEA 0x40
Standard ID: 0x35D       DLC: 8  Data: 0x00 0x03 0x00 0x00 0x00 0x00 0x00 0x00
Standard ID: 0x625       DLC: 6  Data: 0x02 0x00 0xFF 0x0E 0x00 0x00
Standard ID: 0x60D       DLC: 8  Data: 0x10 0x00 0x00 0x00 0x00 0x00 0x00 0x00
Standard ID: 0x2D1       DLC: 7  Data: 0x00 0x00 0x00 0x03 0x23 0x81 0x03
Standard ID: 0x216       DLC: 1  Data: 0x40
Standard ID: 0x358       DLC: 8  Data: 0x00 0x00 0x00 0x00 0x00 0x00 0x00 0x00
Standard ID: 0x280       DLC: 8  Data: 0x03 0x08 0x00 0x00 0x00 0x00 0xEA 0x40
Standard ID: 0x216       DLC: 1  Data: 0x40
Standard ID: 0x2D1       DLC: 7  Data: 0x00 0x00 0x00 0x01 0x23 0x84 0x03
Standard ID: 0x280       DLC: 8  Data: 0x03 0x08 0x00 0x00 0x00 0x00 0xEA 0x40
Standard ID: 0x216       DLC: 1  Data: 0x40
Standard ID: 0x2DE       DLC: 8  Data: 0x00 0x00 0x00 0x00 0x00 0x00 0x03 0x02
Standard ID: 0x2D1       DLC: 7  Data: 0x00 0x00 0x00 0x03 0x23 0x84 0x03
Standard ID: 0x2DE       DLC: 8  Data: 0x00 0x00 0x01 0x00 0x00 0x00 0x03 0x02
Standard ID: 0x216       DLC: 1  Data: 0x40
Standard ID: 0x2D1       DLC: 7  Data: 0x00 0x00 0x00 0x00 0x23 0x84 0x03
Standard ID: 0x280       DLC: 8  Data: 0x03 0x08 0x00 0x00 0x00 0x00 0xEA 0x40
Standard ID: 0x625       DLC: 6  Data: 0x02 0x00 0xFF 0x0E 0x00 0x00
Standard ID: 0x2D1       DLC: 7  Data: 0x00 0x00 0x00 0x02 0x23 0x84 0x03
Standard ID: 0x60D       DLC: 8  Data: 0x10 0x00 0x00 0x00 0x00 0x00 0x00 0x00
Standard ID: 0x216       DLC: 1  Data: 0x40
Standard ID: 0x2DE       DLC: 8  Data: 0x00 0x00 0x02 0x00 0x00 0x00 0x03 0x02
Standard ID: 0x358       DLC: 8  Data: 0x00 0x00 0x00 0x00 0x00 0x00 0x00 0x00
Standard ID: 0x2D1       DLC: 7  Data: 0x00 0x00 0x00 0x00 0x23 0x84 0x03
Standard ID: 0x216       DLC: 1  Data: 0x40
Standard ID: 0x2D1       DLC: 7  Data: 0x00 0x00 0x00 0x01 0x23 0x84 0x03
Standard ID: 0x280       DLC: 8  Data: 0x03 0x08 0x00 0x00 0x00 0x00 0xE9 0x40
Standard ID: 0x216       DLC: 1  Data: 0x40
Standard ID: 0x2D1       DLC: 7  Data: 0x00 0x00 0x00 0x02 0x23 0x84 0x03
Standard ID: 0x280       DLC: 8  Data: 0x03 0x08 0x00 0x00 0x00 0x00 0xE9 0x40
Standard ID: 0x2D1       DLC: 7  Data: 0x00 0x00 0x00 0x03 0x23 0x84 0x03
Standard ID: 0x216       DLC: 1  Data: 0x40
Standard ID: 0x2D1       DLC: 7  Data: 0x00 0x00 0x00 0x00 0x23 0x84 0x03
Standard ID: 0x280       DLC: 8  Data: 0x03 0x08 0x00 0x00 0x00 0x00 0xE9 0x40
Standard ID: 0x625       DLC: 6  Data: 0x02 0x00 0xFF 0x0E 0x00 0x00
Standard ID: 0x2D1       DLC: 7  Data: 0x00 0x00 0x00 0x01 0x23 0x84 0x03
Standard ID: 0x60D       DLC: 8  Data: 0x10 0x00 0x00 0x00 0x00 0x00 0x00 0x00
Standard ID: 0x216       DLC: 1  Data: 0x40
Standard ID: 0x2D1       DLC: 7  Data: 0x00 0x00 0x00 0x03 0x23 0x84 0x03
Standard ID: 0x358       DLC: 8  Data: 0x00 0x00 0x00 0x00 0x00 0x00 0x00 0x00
Standard ID: 0x2DE       DLC: 8  Data: 0x00 0x00 0x01 0x00 0x00 0x00 0x03 0x02
Standard ID: 0x216       DLC: 1  Data: 0x40
Standard ID: 0x2D1       DLC: 7  Data: 0x00 0x00 0x00 0x00 0x23 0x84 0x03
Standard ID: 0x280       DLC: 8  Data: 0x03 0x08 0x00 0x00 0x00 0x00 0xE9 0x40
Standard ID: 0x216       DLC: 1  Data: 0x40
Standard ID: 0x2D1       DLC: 7  Data: 0x00 0x00 0x00 0x02 0x23 0x84 0x03
Standard ID: 0x280       DLC: 8  Data: 0x03 0x08 0x00 0x00 0x00 0x00 0xE9 0x40
Standard ID: 0x2DE       DLC: 8  Data: 0x00 0x00 0x01 0x00 0x00 0x00 0x03 0x02
Standard ID: 0x216       DLC: 1  Data: 0x40
Standard ID: 0x2D1       DLC: 7  Data: 0x00 0x00 0x00 0x03 0x23 0x84 0x03
Standard ID: 0x280       DLC: 8  Data: 0x03 0x08 0x00 0x00 0x00 0x00 0xE9 0x40
Standard ID: 0x625       DLC: 6  Data: 0x02 0x00 0xFF 0x0E 0x00 0x00
Standard ID: 0x2D1       DLC: 7  Data: 0x00 0x00 0x00 0x01 0x23 0x84 0x03
Standard ID: 0x60D       DLC: 8  Data: 0x10 0x00 0x00 0x00 0x00 0x00 0x00 0x00
Standard ID: 0x216       DLC: 1  Data: 0x40
Standard ID: 0x2D1       DLC: 7  Data: 0x00 0x00 0x00 0x02 0x23 0x7C 0x03
Standard ID: 0x358       DLC: 8  Data: 0x00 0x00 0x00 0x00 0x00 0x00 0x00 0x00
Standard ID: 0x2D1       DLC: 7  Data: 0x00 0x00 0x00 0x03 0x23 0x7C 0x03
Standard ID: 0x216       DLC: 1  Data: 0x40
Standard ID: 0x2D1       DLC: 7  Data: 0x00 0x00 0x00 0x00 0x23 0x7C 0x03
Standard ID: 0x280       DLC: 8  Data: 0x03 0x08 0x00 0x00 0x00 0x00 0xE7 0x40
Standard ID: 0x216       DLC: 1  Data: 0x40
Standard ID: 0x2D1       DLC: 7  Data: 0x00 0x00 0x00 0x01 0x23 0x7C 0x03
Standard ID: 0x280       DLC: 8  Data: 0x03 0x08 0x00 0x00 0x00 0x00 0xE7 0x40
Standard ID: 0x2D1       DLC: 7  Data: 0x00 0x00 0x00 0x02 0x23 0x7C 0x03
Standard ID: 0x216       DLC: 1  Data: 0x40
Standard ID: 0x2D1       DLC: 7  Data: 0x00 0x00 0x00 0x03 0x23 0x7C 0x03
Standard ID: 0x280       DLC: 8  Data: 0x03 0x08 0x00 0x00 0x00 0x00 0xE7 0x40
Standard ID: 0x625       DLC: 6  Data: 0x02 0x00 0xFF 0x0E 0x00 0x00
Standard ID: 0x2D1       DLC: 7  Data: 0x00 0x00 0x00 0x00 0x23 0x7C 0x03
Standard ID: 0x60D       DLC: 8  Data: 0x10 0x00 0x00 0x00 0x00 0x00 0x00 0x00
Standard ID: 0x216       DLC: 1  Data: 0x40
Standard ID: 0x2D1       DLC: 7  Data: 0x00 0x00 0x00 0x02 0x23 0x82 0x03
Standard ID: 0x358       DLC: 8  Data: 0x00 0x00 0x00 0x00 0x00 0x00 0x00 0x00
Standard ID: 0x2DE       DLC: 8  Data: 0x00 0x00 0x01 0x00 0x00 0x00 0x03 0x02
Standard ID: 0x216       DLC: 1  Data: 0x40
Standard ID: 0x2D1       DLC: 7  Data: 0x00 0x00 0x00 0x03 0x23 0x82 0x03
Standard ID: 0x280       DLC: 8  Data: 0x03 0x08 0x00 0x00 0x00 0x00 0xE9 0x40
Standard ID: 0x216       DLC: 1  Data: 0x40
Standard ID: 0x2D1       DLC: 7  Data: 0x00 0x00 0x00 0x01 0x23 0x82 0x03
Standard ID: 0x280       DLC: 8  Data: 0x03 0x08 0x00 0x00 0x00 0x00 0xE9 0x40
Standard ID: 0x2DE       DLC: 8  Data: 0x00 0x00 0x01 0x00 0x00 0x00 0x03 0x02
Standard ID: 0x216       DLC: 1  Data: 0x40
Standard ID: 0x2D1       DLC: 7  Data: 0x00 0x00 0x00 0x02 0x23 0x82 0x03
Standard ID: 0x280       DLC: 8  Data: 0x03 0x08 0x00 0x00 0x00 0x00 0xE9 0x40
Standard ID: 0x625       DLC: 6  Data: 0x02 0x00 0xFF 0x0E 0x00 0x00
Standard ID: 0x60D       DLC: 8  Data: 0x10 0x00 0x00 0x00 0x00 0x00 0x00 0x00
Standard ID: 0x280       DLC: 8  Data: 0x03 0x08 0x00 0x00 0x00 0x00 0xE9 0x40
Standard ID: 0x216       DLC: 1  Data: 0x40
Standard ID: 0x358       DLC: 8  Data: 0x00 0x00 0x00 0x00 0x00 0x00 0x00 0x00
Standard ID: 0x280       DLC: 8  Data: 0x03 0x08 0x00 0x00 0x00 0x00 0xEA 0x40
Standard ID: 0x215       DLC: 6  Data: 0xFF 0xF0 0xFF 0x00 0xFF 0xFF
Standard ID: 0x216       DLC: 1  Data: 0x40
Standard ID: 0x2D1       DLC: 7  Data: 0x00 0x00 0x00 0x03 0x23 0x83 0x03
Standard ID: 0x280       DLC: 8  Data: 0x03 0x08 0x00 0x00 0x00 0x00 0xEA 0x40
Standard ID: 0x216       DLC: 1  Data: 0x40
Standard ID: 0x2D1       DLC: 7  Data: 0x00 0x00 0x00 0x00 0x23 0x83 0x03
Standard ID: 0x280       DLC: 8  Data: 0x03 0x08 0x00 0x00 0x00 0x00 0xEA 0x40
Standard ID: 0x215       DLC: 6  Data: 0xFF 0xF0 0xFF 0x00 0xFF 0xFF
Standard ID: 0x216       DLC: 1  Data: 0x40
Standard ID: 0x2D1       DLC: 7  Data: 0x00 0x00 0x00 0x02 0x23 0x83 0x03
Standard ID: 0x280       DLC: 8  Data: 0x03 0x08 0x00 0x00 0x00 0x00 0xEA 0x40
Standard ID: 0x625       DLC: 6  Data: 0x02 0x00 0xFF 0x0E 0x00 0x00
Standard ID: 0x60D       DLC: 8  Data: 0x10 0x00 0x00 0x00 0x00 0x00 0x00 0x00
Standard ID: 0x280       DLC: 8  Data: 0x03 0x08 0x00 0x00 0x00 0x00 0xEA 0x40
Standard ID: 0x216       DLC: 1  Data: 0x40
Standard ID: 0x2D1       DLC: 7  Data: 0x00 0x00 0x00 0x01 0x23 0x82 0x03
Standard ID: 0x358       DLC: 8  Data: 0x00 0x00 0x00 0x00 0x00 0x00 0x00 0x00
Standard ID: 0x2DE       DLC: 8  Data: 0x00 0x00 0x01 0x00 0x00 0x00 0x03 0x02
Standard ID: 0x216       DLC: 1  Data: 0x40
Standard ID: 0x2D1       DLC: 7  Data: 0x00 0x00 0x00 0x02 0x23 0x82 0x03
Standard ID: 0x280       DLC: 8  Data: 0x03 0x08 0x00 0x00 0x00 0x00 0xE7 0x40
Standard ID: 0x216       DLC: 1  Data: 0x40
Standard ID: 0x2D1       DLC: 7  Data: 0x00 0x00 0x00 0x00 0x23 0x82 0x03
Standard ID: 0x280       DLC: 8  Data: 0x03 0x08 0x00 0x00 0x00 0x00 0xE7 0x40
Standard ID: 0x216       DLC: 1  Data: 0x40
Standard ID: 0x2DE       DLC: 8  Data: 0x00 0x00 0x02 0x00 0x00 0x00 0x03 0x02
Standard ID: 0x2D1       DLC: 7  Data: 0x00 0x00 0x00 0x01 0x23 0x82 0x03
Standard ID: 0x5C5       DLC: 8  Data: 0x84 0x00 0xC6 0xA6 0x00 0x0C 0x00 0x00
Standard ID: 0x625       DLC: 6  Data: 0x02 0x00 0xFF 0x0E 0x00 0x00
Standard ID: 0x60D       DLC: 8  Data: 0x10 0x00 0x00 0x00 0x00 0x00 0x00 0x00
Standard ID: 0x280       DLC: 8  Data: 0x03 0x08 0x00 0x00 0x00 0x00 0xE7 0x40
Standard ID: 0x216       DLC: 1  Data: 0x40
Standard ID: 0x358       DLC: 8  Data: 0x00 0x00 0x00 0x00 0x00 0x00 0x00 0x00
Standard ID: 0x280       DLC: 8  Data: 0x03 0x08 0x00 0x00 0x00 0x00 0xE8 0x40
Standard ID: 0x216       DLC: 1  Data: 0x40
Standard ID: 0x2D1       DLC: 7  Data: 0x00 0x00 0x00 0x02 0x23 0x7D 0x03
Standard ID: 0x280       DLC: 8  Data: 0x03 0x08 0x00 0x00 0x00 0x00 0xE8 0x40
Standard ID: 0x2DE       DLC: 8  Data: 0x00 0x00 0x01 0x00 0x00 0x00 0x03 0x02
Standard ID: 0x216       DLC: 1  Data: 0x40
Standard ID: 0x2D1       DLC: 7  Data: 0x00 0x00 0x00 0x03 0x23 0x7D 0x03
Standard ID: 0x280       DLC: 8  Data: 0x03 0x08 0x00 0x00 0x00 0x00 0xE8 0x40
Standard ID: 0x216       DLC: 1  Data: 0x40
Standard ID: 0x2D1       DLC: 7  Data: 0x00 0x00 0x00 0x01 0x23 0x7D 0x03
Standard ID: 0x280       DLC: 8  Data: 0x03 0x08 0x00 0x00 0x00 0x00 0xE8 0x40
Standard ID: 0x5C5       DLC: 8  Data: 0x84 0x00 0xC6 0xA6 0x00 0x0C 0x00 0x00
Standard ID: 0x625       DLC: 6  Data: 0x02 0x00 0xFF 0x0E 0x00 0x00
Standard ID: 0x60D       DLC: 8  Data: 0x10 0x00 0x00 0x00 0x00 0x00 0x00 0x00
Standard ID: 0x2D1       DLC: 7  Data: 0x00 0x00 0x00 0x03 0x23 0x7D 0x03
Standard ID: 0x216       DLC: 1  Data: 0x40
Standard ID: 0x358       DLC: 8  Data: 0x00 0x00 0x00 0x00 0x00 0x00 0x00 0x00
Standard ID: 0x280       DLC: 8  Data: 0x03 0x08 0x00 0x00 0x00 0x00 0xE9 0x40
Standard ID: 0x216       DLC: 1  Data: 0x40
Standard ID: 0x2D1       DLC: 7  Data: 0x00 0x00 0x00 0x01 0x23 0x84 0x03
Standard ID: 0x280       DLC: 8  Data: 0x03 0x08 0x00 0x00 0x00 0x00 0xE9 0x40
Standard ID: 0x2D1       DLC: 7  Data: 0x00 0x00 0x00 0x02 0x23 0x84 0x03
Standard ID: 0x216       DLC: 1  Data: 0x40
Standard ID: 0x2D1       DLC: 7  Data: 0x00 0x00 0x00 0x03 0x23 0x84 0x03
Standard ID: 0x280       DLC: 8  Data: 0x03 0x08 0x00 0x00 0x00 0x00 0xE9 0x40
Standard ID: 0x216       DLC: 1  Data: 0x40
Standard ID: 0x2D1       DLC: 7  Data: 0x00 0x00 0x00 0x00 0x23 0x84 0x03
Standard ID: 0x280       DLC: 8  Data: 0x03 0x08 0x00 0x00 0x00 0x00 0xE9 0x40
Standard ID: 0x35D       DLC: 8  Data: 0x00 0x03 0x00 0x00 0x00 0x00 0x00 0x00
Standard ID: 0x625       DLC: 6  Data: 0x02 0x00 0xFF 0x0E 0x00 0x00
Standard ID: 0x60D       DLC: 8  Data: 0x10 0x00 0x00 0x00 0x00 0x00 0x00 0x00
Standard ID: 0x2DE       DLC: 8  Data: 0x00 0x00 0x01 0x00 0x00 0x00 0x03 0x02
Standard ID: 0x216       DLC: 1  Data: 0x40
Standard ID: 0x358       DLC: 8  Data: 0x00 0x00 0x00 0x00 0x00 0x00 0x00 0x00
Standard ID: 0x280       DLC: 8  Data: 0x03 0x08 0x00 0x00 0x00 0x00 0xE9 0x40
Standard ID: 0x216       DLC: 1  Data: 0x40
Standard ID: 0x2D1       DLC: 7  Data: 0x00 0x00 0x00 0x01 0x23 0x84 0x03
Standard ID: 0x280       DLC: 8  Data: 0x03 0x08 0x00 0x00 0x00 0x00 0xE9 0x40
Standard ID: 0x216       DLC: 1  Data: 0x40
Standard ID: 0x2DE       DLC: 8  Data: 0x00 0x00 0x02 0x00 0x00 0x00 0x03 0x02
Standard ID: 0x2D1       DLC: 7  Data: 0x00 0x00 0x00 0x02 0x23 0x84 0x03
Standard ID: 0x2D1       DLC: 7  Data: 0x00 0x00 0x00 0x03 0x23 0x84 0x03
Standard ID: 0x216       DLC: 1  Data: 0x40
Standard ID: 0x2D1       DLC: 7  Data: 0x00 0x00 0x00 0x00 0x23 0x84 0x03
Standard ID: 0x280       DLC: 8  Data: 0x03 0x08 0x00 0x00 0x00 0x00 0xE9 0x40
Standard ID: 0x625       DLC: 6  Data: 0x02 0x00 0xFF 0x0E 0x00 0x00
Standard ID: 0x2D1       DLC: 7  Data: 0x00 0x00 0x00 0x01 0x23 0x84 0x03
Standard ID: 0x60D       DLC: 8  Data: 0x10 0x00 0x00 0x00 0x00 0x00 0x00 0x00
Standard ID: 0x215       DLC: 6  Data: 0xFF 0xF0 0xFF 0x00 0xFF 0xFF
Standard ID: 0x216       DLC: 1  Data: 0x40
Standard ID: 0x358       DLC: 8  Data: 0x00 0x00 0x00 0x00 0x00 0x00 0x00 0x00
Standard ID: 0x280       DLC: 8  Data: 0x03 0x08 0x00 0x00 0x00 0x00 0xE9 0x40
Standard ID: 0x216       DLC: 1  Data: 0x40
Standard ID: 0x2D1       DLC: 7  Data: 0x00 0x00 0x00 0x00 0x23 0x84 0x03
Standard ID: 0x280       DLC: 8  Data: 0x03 0x08 0x00 0x00 0x00 0x00 0xE9 0x40
Standard ID: 0x216       DLC: 1  Data: 0x40
Standard ID: 0x2DE       DLC: 8  Data: 0x00 0x00 0x00 0x00 0x00 0x00 0x03 0x02
Standard ID: 0x2D1       DLC: 7  Data: 0x00 0x00 0x00 0x02 0x23 0x84 0x03
Standard ID: 0x2DE       DLC: 8  Data: 0x00 0x00 0x01 0x00 0x00 0x00 0x03 0x02
